! Hittite Microwave Corporation
! 2 Elizabeth Drive
! Chelmsford, MA 01824
! http://www.hittite.com
! Tel: 978-250-3343
! Fax: 978-250-3373
! 
! Device:      HMC653LP2
! Description: 3 dB Wideband Fixed Attenuator
! Frequency:    DC - 25.00 GHz
! Package:     LP2  - 2x2 mm Dual Flatpack No-Lead (QFN) Plastic Package:  6 pin
! Ports:       2
!              Pin 1 = Ground
!              Pin 2 = RF1     = Port 1
!              Pin 3 = Ground
!              Pin 4 = Ground
!              Pin 5 = RF2     = Port 2
!              Pin 6 = Ground
!
! Data:    The device was measured on evaluation board 119194-1.  
!          Data was collected using an calibrated network analyzer.
!          The evaluation circuit board was modeled and simulated.  This was use
!          to removed the evaluation board circuit from the measured data.
!          The reference plane is the center (edge) of the package pin.
!
! Misc:        
!
! Date Measured:  2012-04-18
! Date:           2012-04-21 MJV
! Note: 
!   Hittite supplies this data as a sample of measured data at the package pin for
!   for this package product.  Your particular data for this product may vary.
!   Data was taken at 25 degrees C.
!   Hittite reserves the right to change this data at anytime.
!
# GHz S DB R 50
 0.11036    -21.801    -0.009    -2.954    -0.981    -2.962    -0.984   -21.721    -0.207  
 0.21072    -21.642    -0.144    -2.965    -1.773    -2.973    -1.761   -21.625    -0.146  
 0.31108    -21.501     0.007    -2.975    -2.510    -2.980    -2.507   -21.501    -0.179  
 0.41145    -21.437    -0.469    -2.982    -3.250    -2.988    -3.222   -21.406    -0.773  
 0.51181    -21.367    -0.653    -2.987    -3.966    -2.993    -3.954   -21.337    -1.215  
 0.61217    -21.286    -0.972    -2.991    -4.693    -2.998    -4.670   -21.230    -1.596  
 0.71253    -21.226    -1.276    -2.996    -5.395    -3.000    -5.389   -21.201    -2.082  
 0.81289    -21.143    -1.560    -3.000    -6.110    -3.002    -6.093   -21.109    -2.295  
 0.91325    -21.058    -1.570    -3.004    -6.818    -3.006    -6.800   -21.041    -2.615  
 1.01361    -20.973    -1.818    -3.002    -7.529    -3.009    -7.513   -20.974    -2.728  
 1.11398    -20.892    -1.801    -3.007    -8.225    -3.011    -8.227   -20.936    -2.881  
 1.21434    -20.813    -1.701    -3.009    -8.927    -3.013    -8.936   -20.861    -2.867  
 1.31470    -20.708    -1.572    -3.012    -9.641    -3.016    -9.621   -20.807    -2.707  
 1.41506    -20.615    -1.121    -3.015   -10.357    -3.019   -10.334   -20.727    -2.311  
 1.51542    -20.488    -0.738    -3.016   -11.054    -3.021   -11.038   -20.661    -2.086  
 1.61578    -20.410    -0.201    -3.020   -11.755    -3.024   -11.744   -20.577    -1.509  
 1.71614    -20.258     0.414    -3.023   -12.453    -3.027   -12.441   -20.452    -0.864  
 1.81651    -20.147     1.040    -3.027   -13.167    -3.030   -13.147   -20.348    -0.248  
 1.91687    -19.990     1.812    -3.030   -13.867    -3.033   -13.846   -20.219     0.448  
 2.01723    -19.874     2.702    -3.036   -14.548    -3.039   -14.546   -20.084     1.207  
 2.11759    -19.744     3.509    -3.040   -15.256    -3.044   -15.248   -19.967     2.020  
 2.21795    -19.581     4.487    -3.043   -15.948    -3.045   -15.944   -19.820     3.148  
 2.31831    -19.433     5.528    -3.046   -16.646    -3.051   -16.642   -19.691     4.021  
 2.41867    -19.275     6.592    -3.050   -17.343    -3.053   -17.335   -19.553     5.041  
 2.51904    -19.108     7.585    -3.055   -18.038    -3.058   -18.026   -19.362     5.931  
 2.61940    -18.925     8.689    -3.057   -18.727    -3.060   -18.731   -19.234     7.113  
 2.71976    -18.745     9.644    -3.061   -19.431    -3.065   -19.418   -19.056     8.118  
 2.82012    -18.558    10.870    -3.067   -20.124    -3.070   -20.123   -18.861     9.379  
 2.92048    -18.345    11.986    -3.071   -20.808    -3.074   -20.810   -18.647    10.436  
 3.02084    -18.160    13.152    -3.077   -21.516    -3.079   -21.499   -18.458    11.597  
 3.12120    -17.963    14.263    -3.080   -22.209    -3.083   -22.212   -18.230    12.637  
 3.22157    -17.758    15.248    -3.085   -22.900    -3.088   -22.905   -18.073    13.739  
 3.32193    -17.576    16.488    -3.091   -23.602    -3.093   -23.605   -17.854    14.653  
 3.42229    -17.378    17.415    -3.097   -24.292    -3.099   -24.299   -17.647    15.570  
 3.52265    -17.181    18.431    -3.101   -24.989    -3.104   -24.985   -17.465    16.453  
 3.62301    -16.970    19.507    -3.107   -25.691    -3.110   -25.683   -17.225    17.382  
 3.72337    -16.786    20.407    -3.113   -26.383    -3.116   -26.376   -17.047    18.284  
 3.82373    -16.573    21.352    -3.120   -27.066    -3.123   -27.075   -16.834    19.014  
 3.92410    -16.371    22.250    -3.126   -27.770    -3.128   -27.760   -16.631    19.840  
 4.02446    -16.223    22.973    -3.135   -28.424    -3.138   -28.426   -16.479    20.328  
 4.12482    -16.065    23.354    -3.142   -29.091    -3.146   -29.087   -16.323    20.705  
 4.22518    -15.879    24.052    -3.148   -29.764    -3.152   -29.767   -16.121    21.252  
 4.32554    -15.676    24.502    -3.157   -30.444    -3.159   -30.442   -15.901    21.579  
 4.42590    -15.490    25.084    -3.164   -31.120    -3.166   -31.114   -15.714    22.091  
 4.52627    -15.290    25.640    -3.171   -31.803    -3.175   -31.789   -15.505    22.363  
 4.62663    -15.114    26.158    -3.181   -32.481    -3.183   -32.462   -15.317    22.562  
 4.72699    -14.913    26.540    -3.188   -33.140    -3.191   -33.127   -15.123    22.862  
 4.82735    -14.737    26.805    -3.195   -33.805    -3.197   -33.796   -14.942    22.957  
 4.92771    -14.562    27.288    -3.204   -34.455    -3.205   -34.458   -14.761    23.109  
 5.02807    -14.397    27.321    -3.208   -35.130    -3.211   -35.123   -14.603    23.343  
 5.12843    -14.238    27.696    -3.214   -35.794    -3.215   -35.803   -14.420    23.473  
 5.22880    -14.053    27.929    -3.222   -36.463    -3.225   -36.466   -14.252    23.603  
 5.32916    -13.901    28.148    -3.230   -37.134    -3.231   -37.128   -14.103    23.728  
 5.42952    -13.735    28.376    -3.237   -37.810    -3.240   -37.802   -13.934    23.858  
 5.52988    -13.575    28.501    -3.246   -38.468    -3.246   -38.478   -13.794    23.941  
 5.63024    -13.425    28.741    -3.253   -39.141    -3.255   -39.136   -13.622    24.047  
 5.73060    -13.250    28.821    -3.263   -39.811    -3.263   -39.796   -13.466    23.924  
 5.83096    -13.105    28.940    -3.270   -40.478    -3.271   -40.463   -13.317    24.022  
 5.93133    -12.954    29.022    -3.278   -41.128    -3.280   -41.130   -13.158    23.902  
 6.03169    -12.815    29.001    -3.288   -41.787    -3.288   -41.794   -13.023    23.873  
 6.13205    -12.657    29.033    -3.294   -42.444    -3.295   -42.433   -12.888    23.697  
 6.23241    -12.514    29.032    -3.302   -43.109    -3.303   -43.097   -12.737    23.597  
 6.33277    -12.385    28.977    -3.310   -43.745    -3.312   -43.745   -12.608    23.456  
 6.43313    -12.245    28.909    -3.317   -44.396    -3.320   -44.404   -12.472    23.295  
 6.53349    -12.121    28.914    -3.325   -45.051    -3.327   -45.051   -12.357    23.226  
 6.63386    -12.005    28.789    -3.331   -45.708    -3.334   -45.696   -12.246    22.961  
 6.73422    -11.878    28.697    -3.343   -46.356    -3.344   -46.365   -12.119    22.872  
 6.83458    -11.764    28.664    -3.348   -46.998    -3.349   -46.998   -12.013    22.760  
 6.93494    -11.648    28.585    -3.355   -47.647    -3.358   -47.658   -11.908    22.603  
 7.03530    -11.536    28.403    -3.366   -48.298    -3.367   -48.299   -11.782    22.465  
 7.13566    -11.432    28.425    -3.372   -48.950    -3.374   -48.943   -11.679    22.158  
 7.23602    -11.325    28.378    -3.380   -49.574    -3.383   -49.583   -11.560    22.025  
 7.33639    -11.221    28.244    -3.389   -50.225    -3.391   -50.229   -11.458    21.868  
 7.43675    -11.133    28.228    -3.397   -50.863    -3.398   -50.863   -11.366    21.742  
 7.53711    -11.043    28.137    -3.403   -51.498    -3.405   -51.494   -11.284    21.527  
 7.63747    -10.962    27.977    -3.410   -52.137    -3.410   -52.149   -11.204    21.450  
 7.73783    -10.880    28.003    -3.419   -52.781    -3.421   -52.771   -11.115    21.242  
 7.83819    -10.803    27.831    -3.423   -53.411    -3.424   -53.396   -11.047    21.175  
 7.93855    -10.737    27.751    -3.427   -54.036    -3.429   -54.047   -10.978    21.115  
 8.03892    -10.668    27.626    -3.433   -54.670    -3.435   -54.667   -10.914    20.996  
 8.13928    -10.622    27.654    -3.438   -55.297    -3.438   -55.299   -10.844    20.761  
 8.23964    -10.560    27.463    -3.441   -55.939    -3.443   -55.939   -10.783    20.646  
 8.34000    -10.512    27.455    -3.446   -56.553    -3.447   -56.559   -10.754    20.351  
 8.44036    -10.472    27.354    -3.447   -57.176    -3.448   -57.180   -10.714    20.335  
 8.54072    -10.448    27.206    -3.448   -57.818    -3.450   -57.813   -10.666    20.110  
 8.64108    -10.426    27.181    -3.449   -58.435    -3.451   -58.430   -10.651    19.959  
 8.74145    -10.411    27.091    -3.450   -59.062    -3.450   -59.055   -10.625    19.849  
 8.84181    -10.408    26.952    -3.450   -59.681    -3.449   -59.697   -10.635    19.679  
 8.94217    -10.398    26.877    -3.447   -60.323    -3.447   -60.324   -10.630    19.642  
 9.04253    -10.449    26.864    -3.444   -60.925    -3.442   -60.931   -10.649    19.665  
 9.14289    -10.387    26.344    -3.445   -61.586    -3.446   -61.594   -10.644    19.425  
 9.24325    -10.467    26.491    -3.440   -62.205    -3.440   -62.213   -10.644    19.150  
 9.34361    -10.501    26.704    -3.434   -62.851    -3.435   -62.860   -10.699    18.704  
 9.44398    -10.514    25.894    -3.430   -63.510    -3.429   -63.497   -10.769    18.362  
 9.54434    -10.577    26.049    -3.426   -64.153    -3.428   -64.144   -10.760    18.461  
 9.64470    -10.610    25.827    -3.420   -64.790    -3.421   -64.782   -10.828    18.309  
 9.74506    -10.689    25.657    -3.413   -65.445    -3.414   -65.439   -10.882    18.007  
 9.84542    -10.759    25.451    -3.405   -66.090    -3.406   -66.099   -10.963    17.970  
 9.94578    -10.853    25.203    -3.397   -66.749    -3.399   -66.742   -11.024    17.614  
10.04614    -10.910    24.940    -3.389   -67.418    -3.390   -67.422   -11.138    17.415  
10.14651    -11.020    24.627    -3.380   -68.081    -3.381   -68.077   -11.201    16.927  
10.24687    -11.131    24.420    -3.370   -68.760    -3.371   -68.757   -11.319    16.603  
10.34723    -11.197    23.922    -3.363   -69.423    -3.363   -69.434   -11.411    16.281  
10.44759    -11.337    23.638    -3.353   -70.121    -3.353   -70.108   -11.520    16.011  
10.54795    -11.433    23.372    -3.342   -70.802    -3.344   -70.805   -11.637    15.506  
10.64831    -11.559    22.834    -3.329   -71.493    -3.331   -71.497   -11.782    15.164  
10.74867    -11.679    22.308    -3.322   -72.186    -3.323   -72.180   -11.879    14.764  
10.84904    -11.799    21.871    -3.312   -72.891    -3.312   -72.891   -11.996    14.227  
10.94940    -11.907    21.331    -3.303   -73.596    -3.305   -73.591   -12.131    13.742  
11.04976    -12.025    20.716    -3.296   -74.291    -3.297   -74.290   -12.234    13.083  
11.15012    -12.145    20.025    -3.287   -75.008    -3.288   -75.016   -12.358    12.568  
11.25048    -12.239    19.433    -3.281   -75.708    -3.282   -75.726   -12.478    11.874  
11.35084    -12.337    18.636    -3.274   -76.421    -3.277   -76.433   -12.567    11.367  
11.45120    -12.443    18.026    -3.266   -77.138    -3.269   -77.155   -12.682    10.470  
11.55157    -12.505    17.152    -3.266   -77.845    -3.268   -77.862   -12.747     9.720  
11.65193    -12.583    16.263    -3.261   -78.562    -3.264   -78.565   -12.822     9.080  
11.75229    -12.634    15.493    -3.261   -79.269    -3.263   -79.276   -12.851     8.311  
11.85265    -12.667    14.480    -3.259   -79.962    -3.262   -79.972   -12.903     7.553  
11.95301    -12.697    13.480    -3.259   -80.686    -3.260   -80.690   -12.942     6.569  
12.05337    -12.697    12.425    -3.262   -81.375    -3.265   -81.401   -12.938     5.816  
12.15373    -12.707    11.523    -3.263   -82.095    -3.265   -82.119   -12.941     5.020  
12.25410    -12.663    10.389    -3.267   -82.807    -3.271   -82.801   -12.917     4.215  
12.35446    -12.626     9.247    -3.272   -83.489    -3.275   -83.508   -12.886     3.407  
12.45482    -12.565     8.332    -3.279   -84.196    -3.281   -84.203   -12.835     2.416  
12.55518    -12.455     7.217    -3.289   -84.876    -3.291   -84.884   -12.740     1.682  
12.65554    -12.380     6.193    -3.296   -85.576    -3.300   -85.589   -12.646     0.897  
12.75590    -12.242     5.275    -3.310   -86.229    -3.312   -86.259   -12.518    -0.009  
12.85627    -12.113     4.174    -3.320   -86.913    -3.323   -86.925   -12.401    -0.802  
12.95663    -11.972     3.435    -3.336   -87.591    -3.336   -87.609   -12.281    -1.641  
13.05699    -11.808     2.392    -3.351   -88.241    -3.353   -88.258   -12.114    -2.318  
13.15735    -11.650     1.490    -3.365   -88.894    -3.366   -88.912   -11.972    -2.912  
13.25771    -11.473     0.713    -3.382   -89.535    -3.385   -89.568   -11.819    -3.735  
13.35807    -11.296     0.016    -3.401   -90.193    -3.404   -90.202   -11.651    -4.400  
13.45843    -11.108    -0.730    -3.422   -90.821    -3.423   -90.822   -11.476    -4.972  
13.55880    -10.912    -1.357    -3.443   -91.426    -3.445   -91.458   -11.289    -5.350  
13.65916    -10.733    -1.880    -3.462   -92.045    -3.464   -92.079   -11.112    -6.050  
13.75952    -10.537    -2.324    -3.488   -92.667    -3.491   -92.682   -10.932    -6.484  
13.85988    -10.365    -2.833    -3.510   -93.234    -3.513   -93.256   -10.753    -7.000  
13.96024    -10.180    -3.219    -3.536   -93.816    -3.537   -93.846   -10.583    -7.369  
14.06060     -9.995    -3.559    -3.560   -94.412    -3.564   -94.416   -10.409    -7.596  
14.16096     -9.844    -3.892    -3.585   -94.966    -3.583   -94.995   -10.265    -7.999  
14.26133     -9.674    -4.067    -3.609   -95.542    -3.611   -95.555   -10.100    -8.168  
14.36169     -9.517    -4.373    -3.633   -96.072    -3.635   -96.091    -9.967    -8.519  
14.46205     -9.386    -4.530    -3.656   -96.614    -3.657   -96.631    -9.841    -8.663  
14.56241     -9.250    -4.593    -3.675   -97.139    -3.677   -97.159    -9.717    -8.923  
14.66277     -9.140    -4.546    -3.693   -97.671    -3.696   -97.706    -9.637    -9.188  
14.76313     -9.056    -4.585    -3.709   -98.202    -3.712   -98.220    -9.558    -9.287  
14.86349     -8.919    -4.464    -3.729   -98.695    -3.733   -98.711    -9.455    -9.503  
14.96386     -8.846    -4.526    -3.747   -99.207    -3.746   -99.221    -9.405    -9.218  
15.06422     -8.800    -4.398    -3.756   -99.695    -3.757   -99.713    -9.333    -9.311  
15.16458     -8.713    -4.101    -3.768  -100.192    -3.768  -100.208    -9.304    -9.847  
15.26494     -8.692    -4.060    -3.774  -100.687    -3.774  -100.704    -9.288    -9.686  
15.36530     -8.651    -3.769    -3.779  -101.166    -3.780  -101.187    -9.271    -9.948  
15.46566     -8.640    -3.557    -3.781  -101.651    -3.784  -101.675    -9.288    -9.806  
15.56602     -8.645    -3.231    -3.782  -102.158    -3.783  -102.206    -9.327   -10.010  
15.66639     -8.660    -2.883    -3.781  -102.665    -3.784  -102.679    -9.355    -9.941  
15.76675     -8.693    -2.580    -3.774  -103.163    -3.779  -103.183    -9.414    -9.932  
15.86711     -8.756    -2.055    -3.768  -103.716    -3.771  -103.725    -9.515    -9.982  
15.96747     -8.809    -1.707    -3.758  -104.218    -3.762  -104.235    -9.606    -9.804  
16.06783     -8.909    -1.242    -3.746  -104.786    -3.750  -104.788    -9.729    -9.628  
16.16819     -9.005    -0.718    -3.731  -105.327    -3.735  -105.341    -9.871    -9.478  
16.26855     -9.141    -0.223    -3.713  -105.910    -3.717  -105.947   -10.035    -9.375  
16.36892     -9.284     0.358    -3.694  -106.512    -3.696  -106.524   -10.231    -9.384  
16.46928     -9.446     0.951    -3.670  -107.147    -3.671  -107.162   -10.466    -9.231  
16.56964     -9.630     1.668    -3.644  -107.789    -3.651  -107.819   -10.727    -9.156  
16.67000     -9.833     2.401    -3.621  -108.433    -3.624  -108.464   -10.997    -8.715  
16.77036    -10.063     3.154    -3.595  -109.124    -3.598  -109.135   -11.293    -8.387  
16.87072    -10.313     4.082    -3.565  -109.835    -3.570  -109.853   -11.649    -8.166  
16.97108    -10.580     4.994    -3.539  -110.549    -3.540  -110.560   -12.014    -7.624  
17.07145    -10.868     6.171    -3.509  -111.269    -3.511  -111.278   -12.435    -6.931  
17.17181    -11.176     7.277    -3.478  -112.041    -3.483  -112.053   -12.892    -6.527  
17.27217    -11.510     8.574    -3.449  -112.785    -3.453  -112.801   -13.397    -5.619  
17.37253    -11.848    10.040    -3.424  -113.587    -3.425  -113.611   -13.926    -4.731  
17.47289    -12.236    11.626    -3.394  -114.379    -3.400  -114.409   -14.539    -4.030  
17.57325    -12.594    13.343    -3.370  -115.178    -3.375  -115.195   -15.137    -2.310  
17.67361    -12.999    15.121    -3.346  -116.011    -3.348  -116.035   -15.857    -1.344  
17.77398    -13.391    17.522    -3.324  -116.817    -3.326  -116.846   -16.621     1.050  
17.87434    -13.803    19.692    -3.307  -117.646    -3.307  -117.673   -17.306     3.025  
17.97470    -14.219    22.213    -3.284  -118.490    -3.289  -118.516   -18.297     5.724  
18.07506    -14.629    24.820    -3.273  -119.310    -3.273  -119.330   -18.851     9.251  
18.17542    -14.970    27.634    -3.258  -120.138    -3.260  -120.165   -19.882    12.388  
18.27578    -15.386    30.874    -3.245  -120.989    -3.247  -121.021   -20.950    17.741  
18.37614    -15.734    34.102    -3.235  -121.820    -3.237  -121.817   -21.728    23.521  
18.47651    -16.055    36.836    -3.224  -122.625    -3.227  -122.657   -22.562    30.770  
18.57687    -16.310    40.619    -3.221  -123.435    -3.220  -123.444   -23.343    38.785  
18.67723    -16.532    43.446    -3.215  -124.236    -3.216  -124.261   -23.853    46.590  
18.77759    -16.779    46.515    -3.212  -125.006    -3.211  -125.030   -24.197    54.212  
18.87795    -16.930    49.445    -3.208  -125.780    -3.211  -125.795   -24.277    62.733  
18.97831    -17.094    51.972    -3.209  -126.567    -3.208  -126.566   -24.307    69.365  
19.07867    -17.255    54.417    -3.210  -127.297    -3.213  -127.309   -24.153    76.058  
19.17904    -17.393    56.591    -3.213  -128.035    -3.216  -128.040   -23.995    81.616  
19.27940    -17.454    58.064    -3.217  -128.710    -3.219  -128.784   -23.890    85.409  
19.37976    -17.575    59.048    -3.221  -129.415    -3.225  -129.432   -23.767    88.322  
19.48012    -17.745    60.140    -3.232  -130.089    -3.234  -130.127   -23.741    91.293  
19.58048    -17.821    60.166    -3.238  -130.773    -3.243  -130.771   -23.977    92.282  
19.68084    -17.951    60.026    -3.247  -131.354    -3.249  -131.445   -24.193    92.790  
19.78120    -18.079    59.469    -3.253  -132.011    -3.258  -132.018   -24.727    93.341  
19.88157    -18.277    57.629    -3.261  -132.603    -3.263  -132.653   -25.338    91.005  
19.98193    -18.473    55.756    -3.267  -133.192    -3.267  -133.214   -26.443    89.898  
20.08229    -18.600    53.323    -3.260  -133.745    -3.266  -133.786   -27.535    86.698  
20.18265    -18.845    49.994    -3.262  -134.326    -3.264  -134.392   -29.444    82.437  
20.28301    -19.067    46.031    -3.253  -134.934    -3.259  -135.001   -31.738    74.537  
20.38337    -19.210    41.535    -3.247  -135.584    -3.247  -135.621   -34.861    57.955  
